T1140 000:094.563   SEGGER J-Link V6.80e Log File
T1140 000:095.220   DLL Compiled: Jul 13 2020 19:00:48
T1140 000:095.228   Logging started @ 2022-06-20 01:47
T1140 000:095.243 JLINK_SetWarnOutHandler(...)
T1140 000:100.685 - 5.446ms
T1140 000:100.818 JLINK_OpenEx(...)
T1140 000:105.688   Firmware: J-Link V9 compiled May  7 2021 16:26:12
T1140 000:106.003   Decompressing FW timestamp took 139 us
T1140 000:113.015   Hardware: V9.60
T1140 000:113.040   S/N: 69662130
T1140 000:113.049   OEM: SEGGER
T1140 000:113.058   Feature(s): RDI, GDB, FlashDL, FlashBP, JFlash
T1140 000:114.876   TELNET listener socket opened on port 19021
T1140 000:114.999   WEBSRV Starting webserver
T1140 000:115.067   WEBSRV Failed to put socket into listener state (port 19080)
T1140 000:115.178   WEBSRV Webserver running on local port 19081
T1140 000:115.190 - 14.376ms returns "O.K."
T1140 000:115.234 JLINK_SetErrorOutHandler(...)
T1140 000:115.242 - 0.010ms
T1140 000:115.410 JLINK_ExecCommand("ProjectFile = "F:\gProject\Project1\ProjcectFiles\Project1\Project\JLinkSettings.ini"", ...). 
T1140 000:191.875   Ref file found at: D:\keil_523\ARM\Segger\JLinkDevices.ref
T1140 000:192.123   XML referenced by ref file: C:\Program Files (x86)\SEGGER\JLink\JLinkDevices.xml
T1140 000:193.048   C:\Program Files (x86)\SEGGER\JLink\JLinkDevices.xml evaluated successfully.
T1140 000:251.979   Device "NRF52832_XXAA" selected.
T1140 000:252.281 - 137.030ms returns 0x00
T1140 000:256.006 JLINK_ExecCommand("Device = nRF52810_xxAA", ...). 
T1140 000:260.037   Device "NRF52832_XXAA" selected.
T1140 000:260.375 - 4.351ms returns 0x00
T1140 000:260.393 JLINK_ExecCommand("DisableConnectionTimeout", ...). 
T1140 000:260.407 - 0.006ms returns 0x01
T1140 000:260.416 JLINK_GetHardwareVersion()
T1140 000:260.422 - 0.009ms returns 0x17700
T1140 000:260.554 JLINK_GetDLLVersion()  returns 68005
T1140 000:260.569 JLINK_GetFirmwareString(...)
T1140 000:260.576 - 0.009ms
T1140 000:273.909 JLINK_GetDLLVersion()  returns 68005
T1140 000:273.928 JLINK_GetCompileDateTime()
T1140 000:273.935 - 0.009ms
T1140 000:277.686 JLINK_GetFirmwareString(...)
T1140 000:277.715 - 0.032ms
T1140 000:282.072 JLINK_GetHardwareVersion()
T1140 000:282.089 - 0.020ms returns 0x17700
T1140 000:297.127 JLINK_TIF_Select(JLINKARM_TIF_SWD)
T1140 000:299.229 - 2.125ms returns 0x00
T1140 000:299.451 JLINK_SetSpeed(5000)
T1140 000:299.987 - 0.544ms
T1140 000:300.020 JLINK_GetId()
T1140 000:308.525   InitTarget() start
T1140 000:308.550    J-Link Script File: Executing InitTarget()
T1140 000:316.104   InitTarget() end
T1140 000:322.100   Found SW-DP with ID 0x2BA01477
T1140 000:328.798   DPIDR: 0x2BA01477
T1140 000:334.084   Scanning AP map to find all available APs
T1140 000:338.935   AP[2]: Stopped AP scan as end of AP map has been reached
T1140 000:342.410   AP[0]: AHB-AP (IDR: 0x24770011)
T1140 000:346.252   AP[1]: JTAG-AP (IDR: 0x02880000)
T1140 000:350.232   Iterating through AP map to find AHB-AP to use
T1140 000:354.723   AP[0]: Core found
T1140 000:358.240   AP[0]: AHB-AP ROM base: 0xE00FF000
T1140 000:361.994   CPUID register: 0x410FC241. Implementer code: 0x41 (ARM)
T1140 000:366.714   Found Cortex-M4 r0p1, Little endian.
T1140 000:467.965   -- Max. mem block: 0x0000D398
T1140 000:468.295   CPU_ReadMem(4 bytes @ 0xE000EDF0)
T1140 000:470.336   CPU_ReadMem(4 bytes @ 0xE0002000)
T1140 000:473.991   FPUnit: 6 code (BP) slots and 2 literal slots
T1140 000:474.016   CPU_ReadMem(4 bytes @ 0xE000EDFC)
T1140 000:474.314   CPU_ReadMem(4 bytes @ 0xE0001000)
T1140 000:474.588   CPU_WriteMem(4 bytes @ 0xE0001000)
T1140 000:474.846   CPU_ReadMem(4 bytes @ 0xE000ED88)
T1140 000:475.100   CPU_WriteMem(4 bytes @ 0xE000ED88)
T1140 000:475.353   CPU_ReadMem(4 bytes @ 0xE000ED88)
T1140 000:475.602   CPU_WriteMem(4 bytes @ 0xE000ED88)
T1140 000:479.612   CoreSight components:
T1140 000:483.731   ROMTbl[0] @ E00FF000
T1140 000:483.758   CPU_ReadMem(64 bytes @ 0xE00FF000)
T1140 000:484.374   CPU_ReadMem(32 bytes @ 0xE000EFE0)
T1140 000:488.232   ROMTbl[0][0]: E000E000, CID: B105E00D, PID: 000BB00C SCS-M7
T1140 000:488.324   CPU_ReadMem(32 bytes @ 0xE0001FE0)
T1140 000:492.429   ROMTbl[0][1]: E0001000, CID: B105E00D, PID: 003BB002 DWT
T1140 000:492.461   CPU_ReadMem(32 bytes @ 0xE0002FE0)
T1140 000:499.173   ROMTbl[0][2]: E0002000, CID: B105E00D, PID: 002BB003 FPB
T1140 000:499.202   CPU_ReadMem(32 bytes @ 0xE0000FE0)
T1140 000:503.212   ROMTbl[0][3]: E0000000, CID: B105E00D, PID: 003BB001 ITM
T1140 000:503.244   CPU_ReadMem(32 bytes @ 0xE0040FE0)
T1140 000:507.246   ROMTbl[0][4]: E0040000, CID: B105900D, PID: 000BB9A1 TPIU
T1140 000:507.274   CPU_ReadMem(32 bytes @ 0xE0041FE0)
T1140 000:511.546   ROMTbl[0][5]: E0041000, CID: B105900D, PID: 000BB925 ETM
T1140 000:511.980 - 211.981ms   returns 0x2BA01477
T1140 000:512.060 JLINK_GetDLLVersion()  returns 68005
T1140 000:512.075 JLINK_CORE_GetFound()
T1140 000:512.082 - 0.011ms returns 0xE0000FF
T1140 000:512.103 JLINK_GetDebugInfo(0x100 = JLINKARM_ROM_TABLE_ADDR_INDEX)
T1140 000:512.112   Value=0xE00FF000
T1140 000:512.122 - 0.022ms returns 0x00
T1140 000:516.313 JLINK_GetDebugInfo(0x100 = JLINKARM_ROM_TABLE_ADDR_INDEX)
T1140 000:516.335   Value=0xE00FF000
T1140 000:516.344 - 0.034ms returns 0x00
T1140 000:516.353 JLINK_GetDebugInfo(0x101 = JLINKARM_DEBUG_INFO_ETM_ADDR_INDEX)
T1140 000:516.360   Value=0xE0041000
T1140 000:516.369 - 0.018ms returns 0x00
T1140 000:516.377 JLINK_GetDebugInfo(0x102 = JLINKARM_DEBUG_INFO_MTB_ADDR_INDEX)
T1140 000:516.384   Value=0x00000000
T1140 000:516.392 - 0.018ms returns 0x00
T1140 000:516.400 JLINK_GetDebugInfo(0x103 = JLINKARM_DEBUG_INFO_TPIU_ADDR_INDEX)
T1140 000:516.407   Value=0xE0040000
T1140 000:516.415 - 0.018ms returns 0x00
T1140 000:516.423 JLINK_GetDebugInfo(0x104 = JLINKARM_DEBUG_INFO_ITM_ADDR_INDEX)
T1140 000:516.430   Value=0xE0000000
T1140 000:516.438 - 0.017ms returns 0x00
T1140 000:516.446 JLINK_GetDebugInfo(0x105 = JLINKARM_DEBUG_INFO_DWT_ADDR_INDEX)
T1140 000:516.453   Value=0xE0001000
T1140 000:516.461 - 0.018ms returns 0x00
T1140 000:516.469 JLINK_GetDebugInfo(0x106 = JLINKARM_DEBUG_INFO_FPB_ADDR_INDEX)
T1140 000:516.475   Value=0xE0002000
T1140 000:516.485 - 0.019ms returns 0x00
T1140 000:516.493 JLINK_GetDebugInfo(0x107 = JLINKARM_DEBUG_INFO_NVIC_ADDR_INDEX)
T1140 000:516.500   Value=0xE000E000
T1140 000:516.508 - 0.017ms returns 0x00
T1140 000:516.516 JLINK_GetDebugInfo(0x10C = JLINKARM_DEBUG_INFO_DBG_ADDR_INDEX)
T1140 000:516.523   Value=0xE000EDF0
T1140 000:516.531 - 0.018ms returns 0x00
T1140 000:516.540 JLINK_ReadMemU32(0xE000EF40, 0x0001 Items, ...)
T1140 000:516.765   CPU_ReadMem(4 bytes @ 0xE000EF40)
T1140 000:517.212   Data:  21 00 11 10
T1140 000:517.229 - 0.692ms returns 1
T1140 000:517.261 JLINK_ReadMemU32(0xE000EF44, 0x0001 Items, ...)
T1140 000:517.279   CPU_ReadMem(4 bytes @ 0xE000EF44)
T1140 000:517.607   Data:  11 00 00 11
T1140 000:517.620 - 0.363ms returns 1
T1140 000:517.647 JLINK_ReadMemU32(0xE000ED00, 0x0001 Items, ...)
T1140 000:517.660   CPU_ReadMem(4 bytes @ 0xE000ED00)
T1140 000:518.008   Data:  41 C2 0F 41
T1140 000:518.022   Debug reg: CPUID
T1140 000:518.044 - 0.401ms returns 1
T1140 000:518.078 JLINK_SetResetType(JLINKARM_CM3_RESET_TYPE_NORMAL)
T1140 000:518.086 - 0.011ms returns JLINKARM_CM3_RESET_TYPE_NORMAL
T1140 000:518.095 JLINK_Reset()
T1140 000:518.745   CPU is running
T1140 000:518.762   CPU_WriteMem(4 bytes @ 0xE000EDF0)
T1140 000:519.019   CPU is running
T1140 000:519.033   CPU_WriteMem(4 bytes @ 0xE000EDFC)
T1140 000:523.007   Reset: Halt core after reset via DEMCR.VC_CORERESET.
T1140 000:527.480   Reset: Reset device via AIRCR.SYSRESETREQ.
T1140 000:527.508   CPU is running
T1140 000:527.522   CPU_WriteMem(4 bytes @ 0xE000ED0C)
T1140 000:580.779   CPU_ReadMem(4 bytes @ 0xE000EDF0)
T1140 000:581.090   CPU_ReadMem(4 bytes @ 0xE000EDF0)
T1140 000:581.331   CPU is running
T1140 000:581.349   CPU_WriteMem(4 bytes @ 0xE000EDF0)
T1140 000:581.586   CPU is running
T1140 000:581.600   CPU_WriteMem(4 bytes @ 0xE000EDFC)
T1140 000:587.315   CPU_ReadMem(4 bytes @ 0xE000EDF0)
T1140 000:589.618   CPU_WriteMem(4 bytes @ 0xE0002000)
T1140 000:589.875   CPU_ReadMem(4 bytes @ 0xE000EDFC)
T1140 000:590.128   CPU_ReadMem(4 bytes @ 0xE0001000)
T1140 000:590.507 - 72.421ms
T1140 000:590.552 JLINK_Halt()
T1140 000:590.560 - 0.012ms returns 0x00
T1140 000:590.569 JLINK_IsHalted()
T1140 000:590.576 - 0.010ms returns TRUE
T1140 000:590.585 JLINK_ReadMemU32(0xE000EDF0, 0x0001 Items, ...)
T1140 000:590.600   CPU_ReadMem(4 bytes @ 0xE000EDF0)
T1140 000:590.867   Data:  03 00 03 00
T1140 000:590.882   Debug reg: DHCSR
T1140 000:590.892 - 0.309ms returns 1
T1140 000:590.920 JLINK_WriteU32(0xE000EDF0, 0xA05F0003)
T1140 000:590.928   Debug reg: DHCSR
T1140 000:590.953   CPU_WriteMem(4 bytes @ 0xE000EDF0)
T1140 000:607.366 - 16.462ms returns 0
T1140 000:607.416 JLINK_WriteU32(0xE000EDFC, 0x01000000)
T1140 000:607.427   Debug reg: DEMCR
T1140 000:607.449   CPU_WriteMem(4 bytes @ 0xE000EDFC)
T1140 000:607.728 - 0.320ms returns 0
T1140 000:621.909 JLINK_GetHWStatus(...)
T1140 000:622.128 - 0.229ms returns 0x00
T1140 000:633.383 JLINK_GetNumBPUnits(Type = 0xFFFFFF00)
T1140 000:633.402 - 0.022ms returns 0x06
T1140 000:633.411 JLINK_GetNumBPUnits(Type = 0xF0)
T1140 000:633.418 - 0.010ms returns 0x2000
T1140 000:633.426 JLINK_GetNumWPUnits()
T1140 000:633.432 - 0.009ms returns 0x04
T1140 000:643.828 JLINK_GetSpeed()
T1140 000:643.846 - 0.021ms returns 0xFA0
T1140 000:651.124 JLINK_ReadMemU32(0xE000E004, 0x0001 Items, ...)
T1140 000:651.193   CPU_ReadMem(4 bytes @ 0xE000E004)
T1140 000:656.196   Data:  01 00 00 00
T1140 000:656.219 - 5.098ms returns 1
T1140 000:656.263 JLINK_ReadMemU32(0xE000E004, 0x0001 Items, ...)
T1140 000:656.283   CPU_ReadMem(4 bytes @ 0xE000E004)
T1140 000:656.621   Data:  01 00 00 00
T1140 000:656.636 - 0.376ms returns 1
T1140 000:656.665 JLINK_WriteMem(0xE0001000, 0x001C Bytes, ...)
T1140 000:656.673   Data:  01 00 00 00 00 00 00 00 00 00 00 00 00 00 00 00 ...
T1140 000:657.098   CPU_WriteMem(28 bytes @ 0xE0001000)
T1140 000:657.460 - 0.806ms returns 0x1C
T1140 000:657.500 JLINK_ReadMem (0xE0001000, 0x001C Bytes, ...)
T1140 000:657.519   CPU_ReadMem(28 bytes @ 0xE0001000)
T1140 000:657.878   Data:  01 00 00 40 00 00 00 00 00 00 00 00 00 00 00 00 ...
T1140 000:657.892 - 0.395ms returns 0x00
T1140 000:657.928 JLINK_Halt()
T1140 000:657.937 - 0.011ms returns 0x00
T1140 000:657.945 JLINK_IsHalted()
T1140 000:657.952 - 0.010ms returns TRUE
T1140 000:688.129 JLINK_WriteMem(0x20000000, 0x0234 Bytes, ...)
T1140 000:688.157   Data:  00 BE 0A E0 0D 78 2D 06 68 40 08 24 40 00 00 D3 ...
T1140 000:688.451   CPU_WriteMem(564 bytes @ 0x20000000)
T1140 000:706.583 - 18.468ms returns 0x234
T1140 000:706.662 JLINK_WriteReg(R0, 0x00000000)
T1140 000:706.675 - 0.018ms returns 0x00
T1140 000:706.684 JLINK_WriteReg(R1, 0x03D09000)
T1140 000:706.692 - 0.011ms returns 0x00
T1140 000:706.701 JLINK_WriteReg(R2, 0x00000001)
T1140 000:706.708 - 0.010ms returns 0x00
T1140 000:706.716 JLINK_WriteReg(R3, 0x00000000)
T1140 000:706.723 - 0.010ms returns 0x00
T1140 000:706.731 JLINK_WriteReg(R4, 0x00000000)
T1140 000:706.749 - 0.021ms returns 0x00
T1140 000:706.758 JLINK_WriteReg(R5, 0x00000000)
T1140 000:706.765 - 0.010ms returns 0x00
T1140 000:706.774 JLINK_WriteReg(R6, 0x00000000)
T1140 000:706.781 - 0.010ms returns 0x00
T1140 000:706.789 JLINK_WriteReg(R7, 0x00000000)
T1140 000:706.796 - 0.010ms returns 0x00
T1140 000:706.805 JLINK_WriteReg(R8, 0x00000000)
T1140 000:706.817 - 0.015ms returns 0x00
T1140 000:706.825 JLINK_WriteReg(R9, 0x20000230)
T1140 000:706.832 - 0.010ms returns 0x00
T1140 000:706.840 JLINK_WriteReg(R10, 0x00000000)
T1140 000:706.847 - 0.009ms returns 0x00
T1140 000:706.855 JLINK_WriteReg(R11, 0x00000000)
T1140 000:706.862 - 0.009ms returns 0x00
T1140 000:706.870 JLINK_WriteReg(R12, 0x00000000)
T1140 000:706.876 - 0.009ms returns 0x00
T1140 000:706.884 JLINK_WriteReg(R13 (SP), 0x20004000)
T1140 000:706.892 - 0.010ms returns 0x00
T1140 000:706.900 JLINK_WriteReg(R14, 0x20000001)
T1140 000:706.907 - 0.009ms returns 0x00
T1140 000:706.915 JLINK_WriteReg(R15 (PC), 0x2000003C)
T1140 000:706.929 - 0.017ms returns 0x00
T1140 000:706.937 JLINK_WriteReg(XPSR, 0x01000000)
T1140 000:706.944 - 0.009ms returns 0x00
T1140 000:706.952 JLINK_WriteReg(MSP, 0x20004000)
T1140 000:706.959 - 0.010ms returns 0x00
T1140 000:706.982 JLINK_WriteReg(PSP, 0x20004000)
T1140 000:706.989 - 0.010ms returns 0x00
T1140 000:706.997 JLINK_WriteReg(CFBP, 0x00000000)
T1140 000:707.012 - 0.018ms returns 0x00
T1140 000:707.027   JLINK_SetBPEx(Addr = 0x20000000, Type = 0xFFFFFFF2)
T1140 000:707.043   CPU_ReadMem(2 bytes @ 0x20000000)
T1140 000:707.305 - 0.293ms returns 0x00000001
T1140 000:707.342 JLINK_Go()
T1140 000:707.354   CPU_WriteMem(2 bytes @ 0x20000000)
T1140 000:707.606   CPU_ReadMem(4 bytes @ 0xE0001000)
T1140 000:707.850   CPU_WriteMem(4 bytes @ 0xE0002008)
T1140 000:707.864   CPU_WriteMem(4 bytes @ 0xE000200C)
T1140 000:707.885   CPU_WriteMem(4 bytes @ 0xE0002010)
T1140 000:707.894   CPU_WriteMem(4 bytes @ 0xE0002014)
T1140 000:707.904   CPU_WriteMem(4 bytes @ 0xE0002018)
T1140 000:707.913   CPU_WriteMem(4 bytes @ 0xE000201C)
T1140 000:708.886   CPU_WriteMem(4 bytes @ 0xE0001004)
T1140 000:710.973 - 3.642ms
T1140 000:711.010 JLINK_IsHalted()
T1140 000:712.989   CPU_ReadMem(2 bytes @ 0x20000000)
T1140 000:713.305 - 2.303ms returns TRUE
T1140 000:713.340 JLINK_ReadReg(R15 (PC))
T1140 000:713.352 - 0.016ms returns 0x20000000
T1140 000:713.362 JLINK_ClrBPEx(BPHandle = 0x00000001)
T1140 000:713.369 - 0.010ms returns 0x00
T1140 000:713.378 JLINK_ReadReg(R0)
T1140 000:713.385 - 0.010ms returns 0x00000000
T1140 000:714.028 JLINK_WriteReg(R0, 0x00018000)
T1140 000:714.045 - 0.020ms returns 0x00
T1140 000:714.054 JLINK_WriteReg(R1, 0x00001000)
T1140 000:714.061 - 0.010ms returns 0x00
T1140 000:714.069 JLINK_WriteReg(R2, 0x000000FF)
T1140 000:714.075 - 0.009ms returns 0x00
T1140 000:714.084 JLINK_WriteReg(R3, 0x00000000)
T1140 000:714.090 - 0.009ms returns 0x00
T1140 000:714.098 JLINK_WriteReg(R4, 0x00000000)
T1140 000:714.105 - 0.009ms returns 0x00
T1140 000:714.113 JLINK_WriteReg(R5, 0x00000000)
T1140 000:714.120 - 0.009ms returns 0x00
T1140 000:714.128 JLINK_WriteReg(R6, 0x00000000)
T1140 000:714.134 - 0.009ms returns 0x00
T1140 000:714.142 JLINK_WriteReg(R7, 0x00000000)
T1140 000:714.149 - 0.009ms returns 0x00
T1140 000:714.157 JLINK_WriteReg(R8, 0x00000000)
T1140 000:714.164 - 0.010ms returns 0x00
T1140 000:714.172 JLINK_WriteReg(R9, 0x20000230)
T1140 000:714.179 - 0.010ms returns 0x00
T1140 000:714.187 JLINK_WriteReg(R10, 0x00000000)
T1140 000:714.193 - 0.010ms returns 0x00
T1140 000:714.202 JLINK_WriteReg(R11, 0x00000000)
T1140 000:714.208 - 0.009ms returns 0x00
T1140 000:714.216 JLINK_WriteReg(R12, 0x00000000)
T1140 000:714.223 - 0.009ms returns 0x00
T1140 000:714.232 JLINK_WriteReg(R13 (SP), 0x20004000)
T1140 000:714.239 - 0.010ms returns 0x00
T1140 000:714.248 JLINK_WriteReg(R14, 0x20000001)
T1140 000:714.254 - 0.009ms returns 0x00
T1140 000:714.262 JLINK_WriteReg(R15 (PC), 0x2000011A)
T1140 000:714.269 - 0.010ms returns 0x00
T1140 000:714.277 JLINK_WriteReg(XPSR, 0x01000000)
T1140 000:714.284 - 0.009ms returns 0x00
T1140 000:714.292 JLINK_WriteReg(MSP, 0x20004000)
T1140 000:714.298 - 0.009ms returns 0x00
T1140 000:714.306 JLINK_WriteReg(PSP, 0x20004000)
T1140 000:714.313 - 0.009ms returns 0x00
T1140 000:714.321 JLINK_WriteReg(CFBP, 0x00000000)
T1140 000:714.328 - 0.009ms returns 0x00
T1140 000:714.337   JLINK_SetBPEx(Addr = 0x20000000, Type = 0xFFFFFFF2)
T1140 000:714.348 - 0.015ms returns 0x00000002
T1140 000:714.356 JLINK_Go()
T1140 000:714.374   CPU_ReadMem(4 bytes @ 0xE0001000)
T1140 000:716.530 - 2.190ms
T1140 000:716.579 JLINK_IsHalted()
T1140 000:718.515   CPU_ReadMem(2 bytes @ 0x20000000)
T1140 000:718.795 - 2.223ms returns TRUE
T1140 000:718.828 JLINK_ReadReg(R15 (PC))
T1140 000:718.839 - 0.015ms returns 0x20000000
T1140 000:718.849 JLINK_ClrBPEx(BPHandle = 0x00000002)
T1140 000:718.856 - 0.010ms returns 0x00
T1140 000:718.865 JLINK_ReadReg(R0)
T1140 000:718.872 - 0.010ms returns 0x00000001
T1140 000:718.931 JLINK_WriteReg(R0, 0x00018000)
T1140 000:718.945 - 0.017ms returns 0x00
T1140 000:718.953 JLINK_WriteReg(R1, 0x00001000)
T1140 000:718.960 - 0.010ms returns 0x00
T1140 000:718.968 JLINK_WriteReg(R2, 0x000000FF)
T1140 000:718.975 - 0.009ms returns 0x00
T1140 000:718.983 JLINK_WriteReg(R3, 0x00000000)
T1140 000:718.990 - 0.009ms returns 0x00
T1140 000:718.998 JLINK_WriteReg(R4, 0x00000000)
T1140 000:719.005 - 0.009ms returns 0x00
T1140 000:719.013 JLINK_WriteReg(R5, 0x00000000)
T1140 000:719.020 - 0.009ms returns 0x00
T1140 000:719.028 JLINK_WriteReg(R6, 0x00000000)
T1140 000:719.034 - 0.009ms returns 0x00
T1140 000:719.042 JLINK_WriteReg(R7, 0x00000000)
T1140 000:719.049 - 0.009ms returns 0x00
T1140 000:719.057 JLINK_WriteReg(R8, 0x00000000)
T1140 000:719.064 - 0.009ms returns 0x00
T1140 000:719.072 JLINK_WriteReg(R9, 0x20000230)
T1140 000:719.078 - 0.009ms returns 0x00
T1140 000:719.086 JLINK_WriteReg(R10, 0x00000000)
T1140 000:719.093 - 0.009ms returns 0x00
T1140 000:719.101 JLINK_WriteReg(R11, 0x00000000)
T1140 000:719.108 - 0.010ms returns 0x00
T1140 000:719.116 JLINK_WriteReg(R12, 0x00000000)
T1140 000:719.123 - 0.010ms returns 0x00
T1140 000:719.132 JLINK_WriteReg(R13 (SP), 0x20004000)
T1140 000:719.139 - 0.010ms returns 0x00
T1140 000:719.147 JLINK_WriteReg(R14, 0x20000001)
T1140 000:719.154 - 0.010ms returns 0x00
T1140 000:719.162 JLINK_WriteReg(R15 (PC), 0x200000D8)
T1140 000:719.169 - 0.010ms returns 0x00
T1140 000:719.177 JLINK_WriteReg(XPSR, 0x01000000)
T1140 000:719.184 - 0.010ms returns 0x00
T1140 000:719.192 JLINK_WriteReg(MSP, 0x20004000)
T1140 000:719.199 - 0.010ms returns 0x00
T1140 000:719.207 JLINK_WriteReg(PSP, 0x20004000)
T1140 000:719.214 - 0.009ms returns 0x00
T1140 000:719.222 JLINK_WriteReg(CFBP, 0x00000000)
T1140 000:719.229 - 0.010ms returns 0x00
T1140 000:719.238   JLINK_SetBPEx(Addr = 0x20000000, Type = 0xFFFFFFF2)
T1140 000:719.249 - 0.014ms returns 0x00000003
T1140 000:719.257 JLINK_Go()
T1140 000:719.272   CPU_ReadMem(4 bytes @ 0xE0001000)
T1140 000:721.460 - 2.215ms
T1140 000:721.501 JLINK_IsHalted()
T1140 000:721.758 - 0.267ms returns FALSE
T1140 000:745.959 JLINK_IsHalted()
T1140 000:756.087   CPU_ReadMem(2 bytes @ 0x20000000)
T1140 000:756.327 - 10.375ms returns TRUE
T1140 000:756.358 JLINK_ReadReg(R15 (PC))
T1140 000:756.369 - 0.014ms returns 0x20000000
T1140 000:756.378 JLINK_ClrBPEx(BPHandle = 0x00000003)
T1140 000:756.385 - 0.010ms returns 0x00
T1140 000:756.394 JLINK_ReadReg(R0)
T1140 000:756.401 - 0.010ms returns 0x00000000
T1140 000:757.053 JLINK_WriteReg(R0, 0x00019000)
T1140 000:757.069 - 0.020ms returns 0x00
T1140 000:757.078 JLINK_WriteReg(R1, 0x00001000)
T1140 000:757.085 - 0.010ms returns 0x00
T1140 000:757.094 JLINK_WriteReg(R2, 0x000000FF)
T1140 000:757.100 - 0.009ms returns 0x00
T1140 000:757.109 JLINK_WriteReg(R3, 0x00000000)
T1140 000:757.115 - 0.010ms returns 0x00
T1140 000:757.124 JLINK_WriteReg(R4, 0x00000000)
T1140 000:757.131 - 0.009ms returns 0x00
T1140 000:757.139 JLINK_WriteReg(R5, 0x00000000)
T1140 000:757.146 - 0.009ms returns 0x00
T1140 000:757.154 JLINK_WriteReg(R6, 0x00000000)
T1140 000:757.160 - 0.009ms returns 0x00
T1140 000:757.168 JLINK_WriteReg(R7, 0x00000000)
T1140 000:757.175 - 0.009ms returns 0x00
T1140 000:757.183 JLINK_WriteReg(R8, 0x00000000)
T1140 000:757.190 - 0.009ms returns 0x00
T1140 000:757.198 JLINK_WriteReg(R9, 0x20000230)
T1140 000:757.204 - 0.009ms returns 0x00
T1140 000:757.212 JLINK_WriteReg(R10, 0x00000000)
T1140 000:757.219 - 0.010ms returns 0x00
T1140 000:757.227 JLINK_WriteReg(R11, 0x00000000)
T1140 000:757.234 - 0.009ms returns 0x00
T1140 000:757.242 JLINK_WriteReg(R12, 0x00000000)
T1140 000:757.249 - 0.010ms returns 0x00
T1140 000:757.257 JLINK_WriteReg(R13 (SP), 0x20004000)
T1140 000:757.264 - 0.010ms returns 0x00
T1140 000:757.272 JLINK_WriteReg(R14, 0x20000001)
T1140 000:757.279 - 0.010ms returns 0x00
T1140 000:757.287 JLINK_WriteReg(R15 (PC), 0x2000011A)
T1140 000:757.294 - 0.010ms returns 0x00
T1140 000:757.345 JLINK_WriteReg(XPSR, 0x01000000)
T1140 000:757.356 - 0.014ms returns 0x00
T1140 000:757.364 JLINK_WriteReg(MSP, 0x20004000)
T1140 000:757.371 - 0.009ms returns 0x00
T1140 000:757.379 JLINK_WriteReg(PSP, 0x20004000)
T1140 000:757.385 - 0.009ms returns 0x00
T1140 000:757.394 JLINK_WriteReg(CFBP, 0x00000000)
T1140 000:757.400 - 0.009ms returns 0x00
T1140 000:757.409   JLINK_SetBPEx(Addr = 0x20000000, Type = 0xFFFFFFF2)
T1140 000:757.420 - 0.014ms returns 0x00000004
T1140 000:757.428 JLINK_Go()
T1140 000:757.443   CPU_ReadMem(4 bytes @ 0xE0001000)
T1140 000:759.531 - 2.116ms
T1140 000:759.571 JLINK_IsHalted()
T1140 000:761.410   CPU_ReadMem(2 bytes @ 0x20000000)
T1140 000:761.766 - 2.205ms returns TRUE
T1140 000:761.808 JLINK_ReadReg(R15 (PC))
T1140 000:761.821 - 0.016ms returns 0x20000000
T1140 000:761.834 JLINK_ClrBPEx(BPHandle = 0x00000004)
T1140 000:761.842 - 0.011ms returns 0x00
T1140 000:761.854 JLINK_ReadReg(R0)
T1140 000:761.861 - 0.011ms returns 0x00000001
T1140 000:761.879 JLINK_WriteReg(R0, 0x00019000)
T1140 000:761.901 - 0.025ms returns 0x00
T1140 000:761.912 JLINK_WriteReg(R1, 0x00001000)
T1140 000:761.920 - 0.011ms returns 0x00
T1140 000:761.928 JLINK_WriteReg(R2, 0x000000FF)
T1140 000:761.935 - 0.010ms returns 0x00
T1140 000:761.943 JLINK_WriteReg(R3, 0x00000000)
T1140 000:761.950 - 0.010ms returns 0x00
T1140 000:761.958 JLINK_WriteReg(R4, 0x00000000)
T1140 000:761.965 - 0.010ms returns 0x00
T1140 000:761.973 JLINK_WriteReg(R5, 0x00000000)
T1140 000:761.980 - 0.009ms returns 0x00
T1140 000:761.988 JLINK_WriteReg(R6, 0x00000000)
T1140 000:761.995 - 0.009ms returns 0x00
T1140 000:762.003 JLINK_WriteReg(R7, 0x00000000)
T1140 000:762.010 - 0.009ms returns 0x00
T1140 000:762.018 JLINK_WriteReg(R8, 0x00000000)
T1140 000:762.024 - 0.010ms returns 0x00
T1140 000:762.032 JLINK_WriteReg(R9, 0x20000230)
T1140 000:762.039 - 0.009ms returns 0x00
T1140 000:762.047 JLINK_WriteReg(R10, 0x00000000)
T1140 000:762.054 - 0.010ms returns 0x00
T1140 000:762.063 JLINK_WriteReg(R11, 0x00000000)
T1140 000:762.070 - 0.010ms returns 0x00
T1140 000:762.078 JLINK_WriteReg(R12, 0x00000000)
T1140 000:762.085 - 0.010ms returns 0x00
T1140 000:762.094 JLINK_WriteReg(R13 (SP), 0x20004000)
T1140 000:762.102 - 0.011ms returns 0x00
T1140 000:762.110 JLINK_WriteReg(R14, 0x20000001)
T1140 000:762.118 - 0.010ms returns 0x00
T1140 000:762.127 JLINK_WriteReg(R15 (PC), 0x200000D8)
T1140 000:762.134 - 0.010ms returns 0x00
T1140 000:762.142 JLINK_WriteReg(XPSR, 0x01000000)
T1140 000:762.149 - 0.011ms returns 0x00
T1140 000:762.159 JLINK_WriteReg(MSP, 0x20004000)
T1140 000:762.166 - 0.011ms returns 0x00
T1140 000:762.176 JLINK_WriteReg(PSP, 0x20004000)
T1140 000:762.183 - 0.011ms returns 0x00
T1140 000:762.193 JLINK_WriteReg(CFBP, 0x00000000)
T1140 000:762.200 - 0.011ms returns 0x00
T1140 000:762.211   JLINK_SetBPEx(Addr = 0x20000000, Type = 0xFFFFFFF2)
T1140 000:762.237 - 0.031ms returns 0x00000005
T1140 000:762.249 JLINK_Go()
T1140 000:762.270   CPU_ReadMem(4 bytes @ 0xE0001000)
T1140 000:764.795 - 2.558ms
T1140 000:764.840 JLINK_IsHalted()
T1140 000:765.077 - 0.246ms returns FALSE
T1140 000:768.821 JLINK_IsHalted()
T1140 000:770.753   CPU_ReadMem(2 bytes @ 0x20000000)
T1140 000:771.008 - 2.196ms returns TRUE
T1140 000:771.044 JLINK_ReadReg(R15 (PC))
T1140 000:771.055 - 0.015ms returns 0x20000000
T1140 000:771.065 JLINK_ClrBPEx(BPHandle = 0x00000005)
T1140 000:771.072 - 0.010ms returns 0x00
T1140 000:771.081 JLINK_ReadReg(R0)
T1140 000:771.087 - 0.010ms returns 0x00000000
T1140 000:771.679 JLINK_WriteReg(R0, 0x0001A000)
T1140 000:771.691 - 0.016ms returns 0x00
T1140 000:771.700 JLINK_WriteReg(R1, 0x00001000)
T1140 000:771.707 - 0.010ms returns 0x00
T1140 000:771.715 JLINK_WriteReg(R2, 0x000000FF)
T1140 000:771.722 - 0.009ms returns 0x00
T1140 000:771.730 JLINK_WriteReg(R3, 0x00000000)
T1140 000:771.736 - 0.009ms returns 0x00
T1140 000:771.744 JLINK_WriteReg(R4, 0x00000000)
T1140 000:771.751 - 0.009ms returns 0x00
T1140 000:771.759 JLINK_WriteReg(R5, 0x00000000)
T1140 000:771.815 - 0.062ms returns 0x00
T1140 000:771.827 JLINK_WriteReg(R6, 0x00000000)
T1140 000:771.834 - 0.010ms returns 0x00
T1140 000:771.842 JLINK_WriteReg(R7, 0x00000000)
T1140 000:771.849 - 0.009ms returns 0x00
T1140 000:771.857 JLINK_WriteReg(R8, 0x00000000)
T1140 000:771.864 - 0.009ms returns 0x00
T1140 000:771.872 JLINK_WriteReg(R9, 0x20000230)
T1140 000:771.878 - 0.009ms returns 0x00
T1140 000:771.886 JLINK_WriteReg(R10, 0x00000000)
T1140 000:771.893 - 0.009ms returns 0x00
T1140 000:771.901 JLINK_WriteReg(R11, 0x00000000)
T1140 000:771.908 - 0.009ms returns 0x00
T1140 000:771.916 JLINK_WriteReg(R12, 0x00000000)
T1140 000:771.923 - 0.009ms returns 0x00
T1140 000:771.931 JLINK_WriteReg(R13 (SP), 0x20004000)
T1140 000:771.938 - 0.010ms returns 0x00
T1140 000:771.946 JLINK_WriteReg(R14, 0x20000001)
T1140 000:771.953 - 0.009ms returns 0x00
T1140 000:771.961 JLINK_WriteReg(R15 (PC), 0x2000011A)
T1140 000:771.968 - 0.010ms returns 0x00
T1140 000:771.976 JLINK_WriteReg(XPSR, 0x01000000)
T1140 000:771.984 - 0.010ms returns 0x00
T1140 000:771.992 JLINK_WriteReg(MSP, 0x20004000)
T1140 000:771.998 - 0.009ms returns 0x00
T1140 000:772.006 JLINK_WriteReg(PSP, 0x20004000)
T1140 000:772.013 - 0.009ms returns 0x00
T1140 000:772.021 JLINK_WriteReg(CFBP, 0x00000000)
T1140 000:772.028 - 0.009ms returns 0x00
T1140 000:772.037   JLINK_SetBPEx(Addr = 0x20000000, Type = 0xFFFFFFF2)
T1140 000:772.048 - 0.014ms returns 0x00000006
T1140 000:772.056 JLINK_Go()
T1140 000:772.070   CPU_ReadMem(4 bytes @ 0xE0001000)
T1140 000:774.181 - 2.136ms
T1140 000:774.221 JLINK_IsHalted()
T1140 000:776.162   CPU_ReadMem(2 bytes @ 0x20000000)
T1140 000:776.455 - 2.242ms returns TRUE
T1140 000:776.487 JLINK_ReadReg(R15 (PC))
T1140 000:776.500 - 0.016ms returns 0x20000000
T1140 000:776.509 JLINK_ClrBPEx(BPHandle = 0x00000006)
T1140 000:776.516 - 0.010ms returns 0x00
T1140 000:776.525 JLINK_ReadReg(R0)
T1140 000:776.532 - 0.010ms returns 0x00000001
T1140 000:776.544 JLINK_WriteReg(R0, 0x0001A000)
T1140 000:776.551 - 0.010ms returns 0x00
T1140 000:776.560 JLINK_WriteReg(R1, 0x00001000)
T1140 000:776.566 - 0.009ms returns 0x00
T1140 000:776.574 JLINK_WriteReg(R2, 0x000000FF)
T1140 000:776.581 - 0.009ms returns 0x00
T1140 000:776.589 JLINK_WriteReg(R3, 0x00000000)
T1140 000:776.596 - 0.009ms returns 0x00
T1140 000:776.604 JLINK_WriteReg(R4, 0x00000000)
T1140 000:776.610 - 0.009ms returns 0x00
T1140 000:776.619 JLINK_WriteReg(R5, 0x00000000)
T1140 000:776.625 - 0.009ms returns 0x00
T1140 000:776.633 JLINK_WriteReg(R6, 0x00000000)
T1140 000:776.640 - 0.009ms returns 0x00
T1140 000:776.648 JLINK_WriteReg(R7, 0x00000000)
T1140 000:776.654 - 0.009ms returns 0x00
T1140 000:776.662 JLINK_WriteReg(R8, 0x00000000)
T1140 000:776.669 - 0.030ms returns 0x00
T1140 000:776.699 JLINK_WriteReg(R9, 0x20000230)
T1140 000:776.707 - 0.011ms returns 0x00
T1140 000:776.716 JLINK_WriteReg(R10, 0x00000000)
T1140 000:776.722 - 0.009ms returns 0x00
T1140 000:776.731 JLINK_WriteReg(R11, 0x00000000)
T1140 000:776.737 - 0.009ms returns 0x00
T1140 000:776.745 JLINK_WriteReg(R12, 0x00000000)
T1140 000:776.752 - 0.009ms returns 0x00
T1140 000:776.760 JLINK_WriteReg(R13 (SP), 0x20004000)
T1140 000:776.767 - 0.010ms returns 0x00
T1140 000:776.775 JLINK_WriteReg(R14, 0x20000001)
T1140 000:776.782 - 0.011ms returns 0x00
T1140 000:776.792 JLINK_WriteReg(R15 (PC), 0x200000D8)
T1140 000:776.798 - 0.009ms returns 0x00
T1140 000:776.806 JLINK_WriteReg(XPSR, 0x01000000)
T1140 000:776.813 - 0.009ms returns 0x00
T1140 000:776.821 JLINK_WriteReg(MSP, 0x20004000)
T1140 000:776.828 - 0.009ms returns 0x00
T1140 000:776.836 JLINK_WriteReg(PSP, 0x20004000)
T1140 000:776.842 - 0.009ms returns 0x00
T1140 000:776.866 JLINK_WriteReg(CFBP, 0x00000000)
T1140 000:776.874 - 0.011ms returns 0x00
T1140 000:776.883   JLINK_SetBPEx(Addr = 0x20000000, Type = 0xFFFFFFF2)
T1140 000:776.894 - 0.014ms returns 0x00000007
T1140 000:776.902 JLINK_Go()
T1140 000:776.916   CPU_ReadMem(4 bytes @ 0xE0001000)
T1140 000:779.224 - 2.336ms
T1140 000:779.275 JLINK_IsHalted()
T1140 000:779.568 - 0.300ms returns FALSE
T1140 000:780.790 JLINK_IsHalted()
T1140 000:781.076 - 0.296ms returns FALSE
T1140 000:782.786 JLINK_IsHalted()
T1140 000:784.782   CPU_ReadMem(2 bytes @ 0x20000000)
T1140 000:785.041 - 2.262ms returns TRUE
T1140 000:785.072 JLINK_ReadReg(R15 (PC))
T1140 000:785.084 - 0.015ms returns 0x20000000
T1140 000:785.093 JLINK_ClrBPEx(BPHandle = 0x00000007)
T1140 000:785.101 - 0.010ms returns 0x00
T1140 000:785.109 JLINK_ReadReg(R0)
T1140 000:785.116 - 0.010ms returns 0x00000000
T1140 000:785.703 JLINK_WriteReg(R0, 0x0001B000)
T1140 000:785.716 - 0.016ms returns 0x00
T1140 000:785.725 JLINK_WriteReg(R1, 0x00001000)
T1140 000:785.732 - 0.010ms returns 0x00
T1140 000:785.740 JLINK_WriteReg(R2, 0x000000FF)
T1140 000:785.747 - 0.009ms returns 0x00
T1140 000:785.755 JLINK_WriteReg(R3, 0x00000000)
T1140 000:785.762 - 0.010ms returns 0x00
T1140 000:785.771 JLINK_WriteReg(R4, 0x00000000)
T1140 000:785.777 - 0.009ms returns 0x00
T1140 000:785.785 JLINK_WriteReg(R5, 0x00000000)
T1140 000:785.792 - 0.009ms returns 0x00
T1140 000:785.800 JLINK_WriteReg(R6, 0x00000000)
T1140 000:785.807 - 0.009ms returns 0x00
T1140 000:785.815 JLINK_WriteReg(R7, 0x00000000)
T1140 000:785.821 - 0.009ms returns 0x00
T1140 000:785.829 JLINK_WriteReg(R8, 0x00000000)
T1140 000:785.836 - 0.009ms returns 0x00
T1140 000:785.844 JLINK_WriteReg(R9, 0x20000230)
T1140 000:785.851 - 0.009ms returns 0x00
T1140 000:785.859 JLINK_WriteReg(R10, 0x00000000)
T1140 000:785.866 - 0.010ms returns 0x00
T1140 000:785.874 JLINK_WriteReg(R11, 0x00000000)
T1140 000:785.881 - 0.009ms returns 0x00
T1140 000:785.889 JLINK_WriteReg(R12, 0x00000000)
T1140 000:785.895 - 0.009ms returns 0x00
T1140 000:785.903 JLINK_WriteReg(R13 (SP), 0x20004000)
T1140 000:785.911 - 0.010ms returns 0x00
T1140 000:785.919 JLINK_WriteReg(R14, 0x20000001)
T1140 000:785.925 - 0.009ms returns 0x00
T1140 000:785.933 JLINK_WriteReg(R15 (PC), 0x2000011A)
T1140 000:785.940 - 0.009ms returns 0x00
T1140 000:785.948 JLINK_WriteReg(XPSR, 0x01000000)
T1140 000:785.955 - 0.009ms returns 0x00
T1140 000:785.963 JLINK_WriteReg(MSP, 0x20004000)
T1140 000:785.970 - 0.009ms returns 0x00
T1140 000:785.978 JLINK_WriteReg(PSP, 0x20004000)
T1140 000:785.984 - 0.009ms returns 0x00
T1140 000:785.992 JLINK_WriteReg(CFBP, 0x00000000)
T1140 000:785.999 - 0.009ms returns 0x00
T1140 000:786.008   JLINK_SetBPEx(Addr = 0x20000000, Type = 0xFFFFFFF2)
T1140 000:786.018 - 0.014ms returns 0x00000008
T1140 000:786.027 JLINK_Go()
T1140 000:786.041   CPU_ReadMem(4 bytes @ 0xE0001000)
T1140 000:788.053 - 2.034ms
T1140 000:788.088 JLINK_IsHalted()
T1140 000:789.933   CPU_ReadMem(2 bytes @ 0x20000000)
T1140 000:790.177 - 2.097ms returns TRUE
T1140 000:790.213 JLINK_ReadReg(R15 (PC))
T1140 000:790.224 - 0.015ms returns 0x20000000
T1140 000:790.235 JLINK_ClrBPEx(BPHandle = 0x00000008)
T1140 000:790.243 - 0.011ms returns 0x00
T1140 000:790.253 JLINK_ReadReg(R0)
T1140 000:790.260 - 0.010ms returns 0x00000001
T1140 000:790.274 JLINK_WriteReg(R0, 0x0001B000)
T1140 000:790.281 - 0.010ms returns 0x00
T1140 000:790.301 JLINK_WriteReg(R1, 0x00001000)
T1140 000:790.308 - 0.011ms returns 0x00
T1140 000:790.318 JLINK_WriteReg(R2, 0x000000FF)
T1140 000:790.325 - 0.010ms returns 0x00
T1140 000:790.335 JLINK_WriteReg(R3, 0x00000000)
T1140 000:790.342 - 0.009ms returns 0x00
T1140 000:790.351 JLINK_WriteReg(R4, 0x00000000)
T1140 000:790.358 - 0.009ms returns 0x00
T1140 000:790.368 JLINK_WriteReg(R5, 0x00000000)
T1140 000:790.374 - 0.009ms returns 0x00
T1140 000:790.384 JLINK_WriteReg(R6, 0x00000000)
T1140 000:790.391 - 0.010ms returns 0x00
T1140 000:790.401 JLINK_WriteReg(R7, 0x00000000)
T1140 000:790.407 - 0.009ms returns 0x00
T1140 000:790.417 JLINK_WriteReg(R8, 0x00000000)
T1140 000:790.424 - 0.010ms returns 0x00
T1140 000:790.434 JLINK_WriteReg(R9, 0x20000230)
T1140 000:790.440 - 0.009ms returns 0x00
T1140 000:790.450 JLINK_WriteReg(R10, 0x00000000)
T1140 000:790.456 - 0.009ms returns 0x00
T1140 000:790.466 JLINK_WriteReg(R11, 0x00000000)
T1140 000:790.478 - 0.015ms returns 0x00
T1140 000:790.488 JLINK_WriteReg(R12, 0x00000000)
T1140 000:790.495 - 0.010ms returns 0x00
T1140 000:790.505 JLINK_WriteReg(R13 (SP), 0x20004000)
T1140 000:790.512 - 0.010ms returns 0x00
T1140 000:790.522 JLINK_WriteReg(R14, 0x20000001)
T1140 000:790.529 - 0.010ms returns 0x00
T1140 000:790.538 JLINK_WriteReg(R15 (PC), 0x200000D8)
T1140 000:790.545 - 0.010ms returns 0x00
T1140 000:790.555 JLINK_WriteReg(XPSR, 0x01000000)
T1140 000:790.562 - 0.010ms returns 0x00
T1140 000:790.571 JLINK_WriteReg(MSP, 0x20004000)
T1140 000:790.578 - 0.009ms returns 0x00
T1140 000:790.588 JLINK_WriteReg(PSP, 0x20004000)
T1140 000:790.594 - 0.009ms returns 0x00
T1140 000:790.604 JLINK_WriteReg(CFBP, 0x00000000)
T1140 000:790.611 - 0.009ms returns 0x00
T1140 000:790.621   JLINK_SetBPEx(Addr = 0x20000000, Type = 0xFFFFFFF2)
T1140 000:790.631 - 0.014ms returns 0x00000009
T1140 000:790.641 JLINK_Go()
T1140 000:790.655   CPU_ReadMem(4 bytes @ 0xE0001000)
T1140 000:808.589 - 17.961ms
T1140 000:808.658 JLINK_IsHalted()
T1140 000:808.910 - 0.260ms returns FALSE
T1140 000:810.711 JLINK_IsHalted()
T1140 000:812.696   CPU_ReadMem(2 bytes @ 0x20000000)
T1140 000:812.961 - 2.257ms returns TRUE
T1140 000:812.994 JLINK_ReadReg(R15 (PC))
T1140 000:813.007 - 0.016ms returns 0x20000000
T1140 000:813.017 JLINK_ClrBPEx(BPHandle = 0x00000009)
T1140 000:813.025 - 0.011ms returns 0x00
T1140 000:813.034 JLINK_ReadReg(R0)
T1140 000:813.041 - 0.010ms returns 0x00000000
T1140 000:813.642 JLINK_WriteReg(R0, 0x0001C000)
T1140 000:813.656 - 0.017ms returns 0x00
T1140 000:813.665 JLINK_WriteReg(R1, 0x00001000)
T1140 000:813.672 - 0.010ms returns 0x00
T1140 000:813.680 JLINK_WriteReg(R2, 0x000000FF)
T1140 000:813.687 - 0.009ms returns 0x00
T1140 000:813.704 JLINK_WriteReg(R3, 0x00000000)
T1140 000:813.710 - 0.009ms returns 0x00
T1140 000:813.718 JLINK_WriteReg(R4, 0x00000000)
T1140 000:813.725 - 0.009ms returns 0x00
T1140 000:813.733 JLINK_WriteReg(R5, 0x00000000)
T1140 000:813.740 - 0.009ms returns 0x00
T1140 000:813.748 JLINK_WriteReg(R6, 0x00000000)
T1140 000:813.754 - 0.009ms returns 0x00
T1140 000:813.762 JLINK_WriteReg(R7, 0x00000000)
T1140 000:813.769 - 0.009ms returns 0x00
T1140 000:813.777 JLINK_WriteReg(R8, 0x00000000)
T1140 000:813.784 - 0.009ms returns 0x00
T1140 000:813.792 JLINK_WriteReg(R9, 0x20000230)
T1140 000:813.799 - 0.009ms returns 0x00
T1140 000:813.807 JLINK_WriteReg(R10, 0x00000000)
T1140 000:813.813 - 0.010ms returns 0x00
T1140 000:813.822 JLINK_WriteReg(R11, 0x00000000)
T1140 000:813.828 - 0.009ms returns 0x00
T1140 000:813.836 JLINK_WriteReg(R12, 0x00000000)
T1140 000:813.843 - 0.009ms returns 0x00
T1140 000:813.851 JLINK_WriteReg(R13 (SP), 0x20004000)
T1140 000:813.859 - 0.010ms returns 0x00
T1140 000:813.867 JLINK_WriteReg(R14, 0x20000001)
T1140 000:813.874 - 0.010ms returns 0x00
T1140 000:813.882 JLINK_WriteReg(R15 (PC), 0x2000011A)
T1140 000:813.889 - 0.010ms returns 0x00
T1140 000:813.897 JLINK_WriteReg(XPSR, 0x01000000)
T1140 000:813.905 - 0.010ms returns 0x00
T1140 000:813.913 JLINK_WriteReg(MSP, 0x20004000)
T1140 000:813.919 - 0.009ms returns 0x00
T1140 000:813.928 JLINK_WriteReg(PSP, 0x20004000)
T1140 000:813.934 - 0.009ms returns 0x00
T1140 000:813.942 JLINK_WriteReg(CFBP, 0x00000000)
T1140 000:813.949 - 0.009ms returns 0x00
T1140 000:813.958   JLINK_SetBPEx(Addr = 0x20000000, Type = 0xFFFFFFF2)
T1140 000:813.969 - 0.014ms returns 0x0000000A
T1140 000:813.978 JLINK_Go()
T1140 000:813.995   CPU_ReadMem(4 bytes @ 0xE0001000)
T1140 000:816.125 - 2.159ms
T1140 000:816.175 JLINK_IsHalted()
T1140 000:818.058   CPU_ReadMem(2 bytes @ 0x20000000)
T1140 000:818.302 - 2.134ms returns TRUE
T1140 000:818.332 JLINK_ReadReg(R15 (PC))
T1140 000:818.343 - 0.014ms returns 0x20000000
T1140 000:818.352 JLINK_ClrBPEx(BPHandle = 0x0000000A)
T1140 000:818.360 - 0.010ms returns 0x00
T1140 000:818.382 JLINK_ReadReg(R0)
T1140 000:818.389 - 0.010ms returns 0x00000001
T1140 000:818.401 JLINK_WriteReg(R0, 0x0001C000)
T1140 000:818.412 - 0.016ms returns 0x00
T1140 000:818.423 JLINK_WriteReg(R1, 0x00001000)
T1140 000:818.430 - 0.010ms returns 0x00
T1140 000:818.438 JLINK_WriteReg(R2, 0x000000FF)
T1140 000:818.445 - 0.009ms returns 0x00
T1140 000:818.453 JLINK_WriteReg(R3, 0x00000000)
T1140 000:818.459 - 0.009ms returns 0x00
T1140 000:818.467 JLINK_WriteReg(R4, 0x00000000)
T1140 000:818.474 - 0.009ms returns 0x00
T1140 000:818.482 JLINK_WriteReg(R5, 0x00000000)
T1140 000:818.488 - 0.009ms returns 0x00
T1140 000:818.497 JLINK_WriteReg(R6, 0x00000000)
T1140 000:818.503 - 0.009ms returns 0x00
T1140 000:818.511 JLINK_WriteReg(R7, 0x00000000)
T1140 000:818.518 - 0.009ms returns 0x00
T1140 000:818.526 JLINK_WriteReg(R8, 0x00000000)
T1140 000:818.532 - 0.009ms returns 0x00
T1140 000:818.540 JLINK_WriteReg(R9, 0x20000230)
T1140 000:818.547 - 0.009ms returns 0x00
T1140 000:818.555 JLINK_WriteReg(R10, 0x00000000)
T1140 000:818.562 - 0.009ms returns 0x00
T1140 000:818.570 JLINK_WriteReg(R11, 0x00000000)
T1140 000:818.576 - 0.009ms returns 0x00
T1140 000:818.584 JLINK_WriteReg(R12, 0x00000000)
T1140 000:818.591 - 0.009ms returns 0x00
T1140 000:818.599 JLINK_WriteReg(R13 (SP), 0x20004000)
T1140 000:818.606 - 0.010ms returns 0x00
T1140 000:818.614 JLINK_WriteReg(R14, 0x20000001)
T1140 000:818.621 - 0.009ms returns 0x00
T1140 000:818.629 JLINK_WriteReg(R15 (PC), 0x200000D8)
T1140 000:818.636 - 0.009ms returns 0x00
T1140 000:818.644 JLINK_WriteReg(XPSR, 0x01000000)
T1140 000:818.651 - 0.010ms returns 0x00
T1140 000:818.659 JLINK_WriteReg(MSP, 0x20004000)
T1140 000:818.665 - 0.009ms returns 0x00
T1140 000:818.673 JLINK_WriteReg(PSP, 0x20004000)
T1140 000:818.683 - 0.012ms returns 0x00
T1140 000:818.691 JLINK_WriteReg(CFBP, 0x00000000)
T1140 000:818.697 - 0.009ms returns 0x00
T1140 000:818.706   JLINK_SetBPEx(Addr = 0x20000000, Type = 0xFFFFFFF2)
T1140 000:818.716 - 0.024ms returns 0x0000000B
T1140 000:818.736 JLINK_Go()
T1140 000:818.749   CPU_ReadMem(4 bytes @ 0xE0001000)
T1140 000:820.778 - 2.050ms
T1140 000:820.808 JLINK_IsHalted()
T1140 000:821.042 - 0.240ms returns FALSE
T1140 000:822.672 JLINK_IsHalted()
T1140 000:824.581   CPU_ReadMem(2 bytes @ 0x20000000)
T1140 000:824.829 - 2.166ms returns TRUE
T1140 000:824.864 JLINK_ReadReg(R15 (PC))
T1140 000:824.876 - 0.015ms returns 0x20000000
T1140 000:824.885 JLINK_ClrBPEx(BPHandle = 0x0000000B)
T1140 000:824.893 - 0.010ms returns 0x00
T1140 000:824.902 JLINK_ReadReg(R0)
T1140 000:824.909 - 0.010ms returns 0x00000000
T1140 000:825.503 JLINK_WriteReg(R0, 0x0001D000)
T1140 000:825.518 - 0.018ms returns 0x00
T1140 000:825.526 JLINK_WriteReg(R1, 0x00001000)
T1140 000:825.533 - 0.010ms returns 0x00
T1140 000:825.542 JLINK_WriteReg(R2, 0x000000FF)
T1140 000:825.548 - 0.009ms returns 0x00
T1140 000:825.556 JLINK_WriteReg(R3, 0x00000000)
T1140 000:825.563 - 0.009ms returns 0x00
T1140 000:825.571 JLINK_WriteReg(R4, 0x00000000)
T1140 000:825.578 - 0.009ms returns 0x00
T1140 000:825.586 JLINK_WriteReg(R5, 0x00000000)
T1140 000:825.592 - 0.009ms returns 0x00
T1140 000:825.600 JLINK_WriteReg(R6, 0x00000000)
T1140 000:825.607 - 0.009ms returns 0x00
T1140 000:825.615 JLINK_WriteReg(R7, 0x00000000)
T1140 000:825.622 - 0.009ms returns 0x00
T1140 000:825.630 JLINK_WriteReg(R8, 0x00000000)
T1140 000:825.636 - 0.009ms returns 0x00
T1140 000:825.645 JLINK_WriteReg(R9, 0x20000230)
T1140 000:825.651 - 0.017ms returns 0x00
T1140 000:825.667 JLINK_WriteReg(R10, 0x00000000)
T1140 000:825.674 - 0.010ms returns 0x00
T1140 000:825.682 JLINK_WriteReg(R11, 0x00000000)
T1140 000:825.689 - 0.009ms returns 0x00
T1140 000:825.697 JLINK_WriteReg(R12, 0x00000000)
T1140 000:825.704 - 0.009ms returns 0x00
T1140 000:825.712 JLINK_WriteReg(R13 (SP), 0x20004000)
T1140 000:825.719 - 0.010ms returns 0x00
T1140 000:825.728 JLINK_WriteReg(R14, 0x20000001)
T1140 000:825.734 - 0.009ms returns 0x00
T1140 000:825.742 JLINK_WriteReg(R15 (PC), 0x2000011A)
T1140 000:825.749 - 0.009ms returns 0x00
T1140 000:825.757 JLINK_WriteReg(XPSR, 0x01000000)
T1140 000:825.770 - 0.018ms returns 0x00
T1140 000:825.781 JLINK_WriteReg(MSP, 0x20004000)
T1140 000:825.788 - 0.010ms returns 0x00
T1140 000:825.797 JLINK_WriteReg(PSP, 0x20004000)
T1140 000:825.803 - 0.010ms returns 0x00
T1140 000:825.812 JLINK_WriteReg(CFBP, 0x00000000)
T1140 000:825.819 - 0.010ms returns 0x00
T1140 000:825.828   JLINK_SetBPEx(Addr = 0x20000000, Type = 0xFFFFFFF2)
T1140 000:825.839 - 0.015ms returns 0x0000000C
T1140 000:825.848 JLINK_Go()
T1140 000:825.864   CPU_ReadMem(4 bytes @ 0xE0001000)
T1140 000:828.131 - 2.314ms
T1140 000:828.200 JLINK_IsHalted()
T1140 000:830.208   CPU_ReadMem(2 bytes @ 0x20000000)
T1140 000:830.494 - 2.301ms returns TRUE
T1140 000:830.525 JLINK_ReadReg(R15 (PC))
T1140 000:830.550 - 0.028ms returns 0x20000000
T1140 000:830.560 JLINK_ClrBPEx(BPHandle = 0x0000000C)
T1140 000:830.567 - 0.010ms returns 0x00
T1140 000:830.575 JLINK_ReadReg(R0)
T1140 000:830.582 - 0.010ms returns 0x00000001
T1140 000:830.594 JLINK_WriteReg(R0, 0x0001D000)
T1140 000:830.601 - 0.010ms returns 0x00
T1140 000:830.610 JLINK_WriteReg(R1, 0x00001000)
T1140 000:830.616 - 0.009ms returns 0x00
T1140 000:830.624 JLINK_WriteReg(R2, 0x000000FF)
T1140 000:830.631 - 0.009ms returns 0x00
T1140 000:830.639 JLINK_WriteReg(R3, 0x00000000)
T1140 000:830.647 - 0.010ms returns 0x00
T1140 000:830.655 JLINK_WriteReg(R4, 0x00000000)
T1140 000:830.661 - 0.009ms returns 0x00
T1140 000:830.669 JLINK_WriteReg(R5, 0x00000000)
T1140 000:830.676 - 0.009ms returns 0x00
T1140 000:830.684 JLINK_WriteReg(R6, 0x00000000)
T1140 000:830.691 - 0.009ms returns 0x00
T1140 000:830.699 JLINK_WriteReg(R7, 0x00000000)
T1140 000:830.705 - 0.009ms returns 0x00
T1140 000:830.713 JLINK_WriteReg(R8, 0x00000000)
T1140 000:830.720 - 0.009ms returns 0x00
T1140 000:830.728 JLINK_WriteReg(R9, 0x20000230)
T1140 000:830.735 - 0.009ms returns 0x00
T1140 000:830.743 JLINK_WriteReg(R10, 0x00000000)
T1140 000:830.749 - 0.009ms returns 0x00
T1140 000:830.758 JLINK_WriteReg(R11, 0x00000000)
T1140 000:830.764 - 0.009ms returns 0x00
T1140 000:830.772 JLINK_WriteReg(R12, 0x00000000)
T1140 000:830.779 - 0.009ms returns 0x00
T1140 000:830.787 JLINK_WriteReg(R13 (SP), 0x20004000)
T1140 000:830.794 - 0.010ms returns 0x00
T1140 000:830.802 JLINK_WriteReg(R14, 0x20000001)
T1140 000:830.809 - 0.009ms returns 0x00
T1140 000:830.817 JLINK_WriteReg(R15 (PC), 0x200000D8)
T1140 000:830.823 - 0.009ms returns 0x00
T1140 000:830.832 JLINK_WriteReg(XPSR, 0x01000000)
T1140 000:830.838 - 0.009ms returns 0x00
T1140 000:830.846 JLINK_WriteReg(MSP, 0x20004000)
T1140 000:830.853 - 0.009ms returns 0x00
T1140 000:830.861 JLINK_WriteReg(PSP, 0x20004000)
T1140 000:830.868 - 0.009ms returns 0x00
T1140 000:830.876 JLINK_WriteReg(CFBP, 0x00000000)
T1140 000:830.882 - 0.009ms returns 0x00
T1140 000:830.891   JLINK_SetBPEx(Addr = 0x20000000, Type = 0xFFFFFFF2)
T1140 000:830.912 - 0.025ms returns 0x0000000D
T1140 000:830.921 JLINK_Go()
T1140 000:830.935   CPU_ReadMem(4 bytes @ 0xE0001000)
T1140 000:832.990 - 2.079ms
T1140 000:833.026 JLINK_IsHalted()
T1140 000:833.298 - 0.279ms returns FALSE
T1140 000:834.640 JLINK_IsHalted()
T1140 000:834.909 - 0.277ms returns FALSE
T1140 000:836.631 JLINK_IsHalted()
T1140 000:838.507   CPU_ReadMem(2 bytes @ 0x20000000)
T1140 000:838.760 - 2.137ms returns TRUE
T1140 000:838.791 JLINK_ReadReg(R15 (PC))
T1140 000:838.803 - 0.015ms returns 0x20000000
T1140 000:838.812 JLINK_ClrBPEx(BPHandle = 0x0000000D)
T1140 000:838.820 - 0.011ms returns 0x00
T1140 000:838.829 JLINK_ReadReg(R0)
T1140 000:838.836 - 0.010ms returns 0x00000000
T1140 000:839.478 JLINK_WriteReg(R0, 0x0001E000)
T1140 000:839.506 - 0.033ms returns 0x00
T1140 000:839.515 JLINK_WriteReg(R1, 0x00001000)
T1140 000:839.522 - 0.010ms returns 0x00
T1140 000:839.530 JLINK_WriteReg(R2, 0x000000FF)
T1140 000:839.537 - 0.009ms returns 0x00
T1140 000:839.545 JLINK_WriteReg(R3, 0x00000000)
T1140 000:839.552 - 0.009ms returns 0x00
T1140 000:839.560 JLINK_WriteReg(R4, 0x00000000)
T1140 000:839.567 - 0.009ms returns 0x00
T1140 000:839.575 JLINK_WriteReg(R5, 0x00000000)
T1140 000:839.588 - 0.016ms returns 0x00
T1140 000:839.596 JLINK_WriteReg(R6, 0x00000000)
T1140 000:839.603 - 0.009ms returns 0x00
T1140 000:839.611 JLINK_WriteReg(R7, 0x00000000)
T1140 000:839.626 - 0.017ms returns 0x00
T1140 000:839.634 JLINK_WriteReg(R8, 0x00000000)
T1140 000:839.641 - 0.009ms returns 0x00
T1140 000:839.649 JLINK_WriteReg(R9, 0x20000230)
T1140 000:839.656 - 0.010ms returns 0x00
T1140 000:839.664 JLINK_WriteReg(R10, 0x00000000)
T1140 000:839.671 - 0.010ms returns 0x00
T1140 000:839.679 JLINK_WriteReg(R11, 0x00000000)
T1140 000:839.685 - 0.009ms returns 0x00
T1140 000:839.694 JLINK_WriteReg(R12, 0x00000000)
T1140 000:839.700 - 0.009ms returns 0x00
T1140 000:839.708 JLINK_WriteReg(R13 (SP), 0x20004000)
T1140 000:839.716 - 0.010ms returns 0x00
T1140 000:839.724 JLINK_WriteReg(R14, 0x20000001)
T1140 000:839.731 - 0.009ms returns 0x00
T1140 000:839.739 JLINK_WriteReg(R15 (PC), 0x2000011A)
T1140 000:839.746 - 0.010ms returns 0x00
T1140 000:839.754 JLINK_WriteReg(XPSR, 0x01000000)
T1140 000:839.761 - 0.009ms returns 0x00
T1140 000:839.769 JLINK_WriteReg(MSP, 0x20004000)
T1140 000:839.775 - 0.009ms returns 0x00
T1140 000:839.783 JLINK_WriteReg(PSP, 0x20004000)
T1140 000:839.790 - 0.009ms returns 0x00
T1140 000:839.798 JLINK_WriteReg(CFBP, 0x00000000)
T1140 000:839.805 - 0.009ms returns 0x00
T1140 000:839.814   JLINK_SetBPEx(Addr = 0x20000000, Type = 0xFFFFFFF2)
T1140 000:839.825 - 0.015ms returns 0x0000000E
T1140 000:839.833 JLINK_Go()
T1140 000:839.849   CPU_ReadMem(4 bytes @ 0xE0001000)
T1140 000:841.919 - 2.101ms
T1140 000:841.982 JLINK_IsHalted()
T1140 000:843.960   CPU_ReadMem(2 bytes @ 0x20000000)
T1140 000:844.244 - 2.272ms returns TRUE
T1140 000:844.282 JLINK_ReadReg(R15 (PC))
T1140 000:844.295 - 0.016ms returns 0x20000000
T1140 000:844.304 JLINK_ClrBPEx(BPHandle = 0x0000000E)
T1140 000:844.312 - 0.011ms returns 0x00
T1140 000:844.322 JLINK_ReadReg(R0)
T1140 000:844.329 - 0.011ms returns 0x00000001
T1140 000:844.342 JLINK_WriteReg(R0, 0x0001E000)
T1140 000:844.350 - 0.011ms returns 0x00
T1140 000:844.359 JLINK_WriteReg(R1, 0x00001000)
T1140 000:844.366 - 0.010ms returns 0x00
T1140 000:844.375 JLINK_WriteReg(R2, 0x000000FF)
T1140 000:844.381 - 0.010ms returns 0x00
T1140 000:844.390 JLINK_WriteReg(R3, 0x00000000)
T1140 000:844.397 - 0.010ms returns 0x00
T1140 000:844.405 JLINK_WriteReg(R4, 0x00000000)
T1140 000:844.412 - 0.009ms returns 0x00
T1140 000:844.420 JLINK_WriteReg(R5, 0x00000000)
T1140 000:844.427 - 0.009ms returns 0x00
T1140 000:844.435 JLINK_WriteReg(R6, 0x00000000)
T1140 000:844.442 - 0.010ms returns 0x00
T1140 000:844.450 JLINK_WriteReg(R7, 0x00000000)
T1140 000:844.457 - 0.010ms returns 0x00
T1140 000:844.466 JLINK_WriteReg(R8, 0x00000000)
T1140 000:844.472 - 0.010ms returns 0x00
T1140 000:844.481 JLINK_WriteReg(R9, 0x20000230)
T1140 000:844.487 - 0.010ms returns 0x00
T1140 000:844.495 JLINK_WriteReg(R10, 0x00000000)
T1140 000:844.502 - 0.010ms returns 0x00
T1140 000:844.511 JLINK_WriteReg(R11, 0x00000000)
T1140 000:844.518 - 0.010ms returns 0x00
T1140 000:844.526 JLINK_WriteReg(R12, 0x00000000)
T1140 000:844.533 - 0.010ms returns 0x00
T1140 000:844.542 JLINK_WriteReg(R13 (SP), 0x20004000)
T1140 000:844.549 - 0.010ms returns 0x00
T1140 000:844.558 JLINK_WriteReg(R14, 0x20000001)
T1140 000:844.565 - 0.010ms returns 0x00
T1140 000:844.574 JLINK_WriteReg(R15 (PC), 0x200000D8)
T1140 000:844.581 - 0.011ms returns 0x00
T1140 000:844.590 JLINK_WriteReg(XPSR, 0x01000000)
T1140 000:844.597 - 0.010ms returns 0x00
T1140 000:844.608 JLINK_WriteReg(MSP, 0x20004000)
T1140 000:844.615 - 0.010ms returns 0x00
T1140 000:844.623 JLINK_WriteReg(PSP, 0x20004000)
T1140 000:844.630 - 0.010ms returns 0x00
T1140 000:844.639 JLINK_WriteReg(CFBP, 0x00000000)
T1140 000:844.646 - 0.010ms returns 0x00
T1140 000:844.656   JLINK_SetBPEx(Addr = 0x20000000, Type = 0xFFFFFFF2)
T1140 000:844.666 - 0.014ms returns 0x0000000F
T1140 000:844.676 JLINK_Go()
T1140 000:844.692   CPU_ReadMem(4 bytes @ 0xE0001000)
T1140 000:862.763 - 18.102ms
T1140 000:862.812 JLINK_IsHalted()
T1140 000:863.088 - 0.285ms returns FALSE
T1140 000:866.564 JLINK_IsHalted()
T1140 000:868.620   CPU_ReadMem(2 bytes @ 0x20000000)
T1140 000:868.933 - 2.379ms returns TRUE
T1140 000:868.969 JLINK_ReadReg(R15 (PC))
T1140 000:868.983 - 0.017ms returns 0x20000000
T1140 000:868.992 JLINK_ClrBPEx(BPHandle = 0x0000000F)
T1140 000:869.000 - 0.011ms returns 0x00
T1140 000:869.009 JLINK_ReadReg(R0)
T1140 000:869.016 - 0.010ms returns 0x00000000
T1140 000:869.374 JLINK_WriteReg(R0, 0x00000001)
T1140 000:869.389 - 0.018ms returns 0x00
T1140 000:869.398 JLINK_WriteReg(R1, 0x00001000)
T1140 000:869.405 - 0.010ms returns 0x00
T1140 000:869.413 JLINK_WriteReg(R2, 0x000000FF)
T1140 000:869.419 - 0.009ms returns 0x00
T1140 000:869.427 JLINK_WriteReg(R3, 0x00000000)
T1140 000:869.434 - 0.009ms returns 0x00
T1140 000:869.442 JLINK_WriteReg(R4, 0x00000000)
T1140 000:869.449 - 0.009ms returns 0x00
T1140 000:869.457 JLINK_WriteReg(R5, 0x00000000)
T1140 000:869.463 - 0.009ms returns 0x00
T1140 000:869.471 JLINK_WriteReg(R6, 0x00000000)
T1140 000:869.478 - 0.009ms returns 0x00
T1140 000:869.486 JLINK_WriteReg(R7, 0x00000000)
T1140 000:869.493 - 0.009ms returns 0x00
T1140 000:869.501 JLINK_WriteReg(R8, 0x00000000)
T1140 000:869.507 - 0.009ms returns 0x00
T1140 000:869.515 JLINK_WriteReg(R9, 0x20000230)
T1140 000:869.522 - 0.009ms returns 0x00
T1140 000:869.530 JLINK_WriteReg(R10, 0x00000000)
T1140 000:869.538 - 0.011ms returns 0x00
T1140 000:869.547 JLINK_WriteReg(R11, 0x00000000)
T1140 000:869.553 - 0.009ms returns 0x00
T1140 000:869.561 JLINK_WriteReg(R12, 0x00000000)
T1140 000:869.568 - 0.009ms returns 0x00
T1140 000:869.576 JLINK_WriteReg(R13 (SP), 0x20004000)
T1140 000:869.583 - 0.010ms returns 0x00
T1140 000:869.592 JLINK_WriteReg(R14, 0x20000001)
T1140 000:869.598 - 0.010ms returns 0x00
